Coverage Report by instance with details

=================================================================================
=== Instance: /tb_top/hpvif
=== Design Unit: work.ahb2apb_if
=================================================================================
Toggle Coverage:
    Enabled Coverage              Bins      Hits    Misses  Coverage
    ----------------              ----      ----    ------  --------
    Toggles                        390        85       305    21.79%

================================Toggle Details================================

Toggle Coverage for instance /tb_top/hpvif --

                                              Node      1H->0L      0L->1H                          "Coverage"
                                              ---------------------------------------------------------------
                                        HADDR[0-3]           1           1                              100.00 
                                          HADDR[4]           0           1                               50.00 
                                       HADDR[5-10]           1           1                              100.00 
                                         HADDR[11]           0           1                               50.00 
                                      HADDR[12-31]           0           0                                0.00 
                                              HCLK           1           1                              100.00 
                                      HRDATA[0-31]           0           0                                0.00 
                                            HREADY           0           0                                0.00 
                                           HRESETn           0           0                                0.00 
                                             HRESP           0           0                                0.00 
                                           HSELAHB           0           0                                0.00 
                                         HTRANS[0]           1           1                              100.00 
                                         HTRANS[1]           0           0                                0.00 
                                       HWDATA[0-8]           1           1                              100.00 
                                         HWDATA[9]           0           0                                0.00 
                                     HWDATA[10-11]           1           1                              100.00 
                                        HWDATA[12]           1           0                               50.00 
                                     HWDATA[13-21]           1           1                              100.00 
                                        HWDATA[22]           0           0                                0.00 
                                        HWDATA[23]           1           1                              100.00 
                                        HWDATA[24]           0           0                                0.00 
                                     HWDATA[25-28]           1           1                              100.00 
                                        HWDATA[29]           0           0                                0.00 
                                     HWDATA[30-31]           1           1                              100.00 
                                            HWRITE           1           1                              100.00 
                                       PADDR[0-31]           0           0                                0.00 
                                              PCLK           1           1                              100.00 
                                           PENABLE           0           0                                0.00 
                                       PREADY[0-7]           0           0                                0.00 
                                        PSELx[0-7]           0           0                                0.00 
                                      PSLVERR[0-7]           0           0                                0.00 
                                      PWDATA[0-31]           0           0                                0.00 
                                            PWRITE           0           0                                0.00 

Total Node Count     =        195 
Toggled Node Count   =         41 
Untoggled Node Count =        154 

Toggle Coverage      =      21.79% (85 of 390 bins)

=================================================================================
=== Instance: /tb_top/DUT
=== Design Unit: work.ahb2apb
=================================================================================
Branch Coverage:
    Enabled Coverage              Bins      Hits    Misses  Coverage
    ----------------              ----      ----    ------  --------
    Branches                        61        22        39    36.06%

================================Branch Details================================

Branch Coverage for instance /tb_top/DUT

    Line         Item                      Count     Source 
    ----         ----                      -----     ------ 
  File design.sv
------------------------------------IF Branch------------------------------------
    105                                        6     Count coming in to IF
    105             1                    ***0***             if (HRESETn == 1'b0)
    107             1                          5             else if (HSELAHB && (HTRANS == 2'b10 || HTRANS == 2'b11))
    109             1                          1             else
Branch totals: 2 hits of 3 branches = 66.66%

------------------------------------IF Branch------------------------------------
    115                                       21     Count coming in to IF
    115             1                    ***0***             if (PSLVERR[Slave_number] == 1'b0) begin
    121             1                         21             end else begin
Branch totals: 1 hit of 2 branches = 50.00%

------------------------------------IF Branch------------------------------------
    116                                  ***0***     Count coming in to IF
    116             1                    ***0***                 if (HRESETn == 1'b0)
    118             1                    ***0***                 else
Branch totals: 0 hits of 2 branches = 0.00%

------------------------------------CASE Branch------------------------------------
    129                                       23     Count coming in to CASE
    130             1                         23                 IDLE: begin
    145             1                    ***0***                 READ: begin
    154             1                    ***0***                 W_WAIT: begin
    170             1                    ***0***                 WRITE: begin
    183             1                    ***0***                 WRITE_P: begin
    193             1                    ***0***                 W_ENABLE: begin
    207             1                    ***0***                 W_ENABLE_P: begin
    223             1                    ***0***                 R_ENABLE: begin
                                         ***0***     All False Count
Branch totals: 1 hit of 9 branches = 11.11%

------------------------------------IF Branch------------------------------------
    135                                       23     Count coming in to IF
    135             1                          1                     if (valid == 1'b0)
    137             1                         22                     else if (valid == 1'b1) begin
                                         ***0***     All False Count
Branch totals: 2 hits of 3 branches = 66.66%

------------------------------------IF Branch------------------------------------
    139                                       22     Count coming in to IF
    139             1                         10                         if (HWRITE == 1'b0) // Read
    141             1                         12                         else // Write
Branch totals: 2 hits of 2 branches = 100.00%

------------------------------------IF Branch------------------------------------
    161                                  ***0***     Count coming in to IF
    161             1                    ***0***                     if (valid == 1'b0) begin
    164             1                    ***0***                     end else if (valid == 1'b1) begin
                                         ***0***     All False Count
Branch totals: 0 hits of 3 branches = 0.00%

------------------------------------IF Branch------------------------------------
    178                                  ***0***     Count coming in to IF
    178             1                    ***0***                     if (valid == 1'b0)
    180             1                    ***0***                     else if (valid == 1'b1)
                                         ***0***     All False Count
Branch totals: 0 hits of 3 branches = 0.00%

------------------------------------IF Branch------------------------------------
    194                                  ***0***     Count coming in to IF
    194             1                    ***0***                     if (PREADY[Slave_number] == 1'b1) begin
    204             1                    ***0***                     end else
Branch totals: 0 hits of 2 branches = 0.00%

------------------------------------IF Branch------------------------------------
    198                                  ***0***     Count coming in to IF
    198             1                    ***0***                         if (valid == 1'b1 && HWRITE == 1'b0)
    200             1                    ***0***                         else if (valid == 1'b1 && HWRITE == 1'b1)
    202             1                    ***0***                         else if (valid == 1'b0)
                                         ***0***     All False Count
Branch totals: 0 hits of 4 branches = 0.00%

------------------------------------IF Branch------------------------------------
    208                                  ***0***     Count coming in to IF
    208             1                    ***0***                     if (PREADY[Slave_number] == 1'b1) begin
    220             1                    ***0***                     end else
Branch totals: 0 hits of 2 branches = 0.00%

------------------------------------IF Branch------------------------------------
    214                                  ***0***     Count coming in to IF
    214             1                    ***0***                         if (valid == 1'b1 && HWRITE == 1'b1)
    216             1                    ***0***                         else if (valid == 1'b0 && HWRITE == 1'b1)
    218             1                    ***0***                         else if (HWRITE == 1'b0)
                                         ***0***     All False Count
Branch totals: 0 hits of 4 branches = 0.00%

------------------------------------IF Branch------------------------------------
    224                                  ***0***     Count coming in to IF
    224             1                    ***0***                     if (PREADY[Slave_number] == 1'b1) begin
    236             1                    ***0***                     end else
Branch totals: 0 hits of 2 branches = 0.00%

------------------------------------IF Branch------------------------------------
    230                                  ***0***     Count coming in to IF
    230             1                    ***0***                         if (valid == 1'b0)
    232             1                    ***0***                         else if (HWRITE == 1'b0)
    234             1                    ***0***                         else if (HWRITE == 1'b1)
                                         ***0***     All False Count
Branch totals: 0 hits of 4 branches = 0.00%

------------------------------------IF Branch------------------------------------
    247                                       23     Count coming in to IF
    247             1                          4             if (HADDR_Temp >= SLAVE_START_ADDR_0 && HADDR_Temp <= SLAVE_END_ADDR_0) begin
                                              19     All False Count
Branch totals: 2 hits of 2 branches = 100.00%

------------------------------------IF Branch------------------------------------
    251                                       23     Count coming in to IF
    251             1                          2             if (HADDR_Temp >= SLAVE_START_ADDR_1 && HADDR_Temp <= SLAVE_END_ADDR_1) begin
                                              21     All False Count
Branch totals: 2 hits of 2 branches = 100.00%

------------------------------------IF Branch------------------------------------
    255                                       23     Count coming in to IF
    255             1                          4             if (HADDR_Temp >= SLAVE_START_ADDR_2 && HADDR_Temp <= SLAVE_END_ADDR_2) begin
                                              19     All False Count
Branch totals: 2 hits of 2 branches = 100.00%

------------------------------------IF Branch------------------------------------
    259                                       23     Count coming in to IF
    259             1                          2             if (HADDR_Temp >= SLAVE_START_ADDR_3 && HADDR_Temp <= SLAVE_END_ADDR_3) begin
                                              21     All False Count
Branch totals: 2 hits of 2 branches = 100.00%

------------------------------------IF Branch------------------------------------
    263                                       23     Count coming in to IF
    263             1                    ***0***             if (HADDR_Temp >= SLAVE_START_ADDR_4 && HADDR_Temp <= SLAVE_END_ADDR_4) begin
                                              23     All False Count
Branch totals: 1 hit of 2 branches = 50.00%

------------------------------------IF Branch------------------------------------
    267                                       23     Count coming in to IF
    267             1                    ***0***             if (HADDR_Temp >= SLAVE_START_ADDR_5 && HADDR_Temp <= SLAVE_END_ADDR_5) begin
                                              23     All False Count
Branch totals: 1 hit of 2 branches = 50.00%

------------------------------------IF Branch------------------------------------
    271                                       23     Count coming in to IF
    271             1                          1             if (HADDR_Temp >= SLAVE_START_ADDR_6 && HADDR_Temp <= SLAVE_END_ADDR_6) begin
                                              22     All False Count
Branch totals: 2 hits of 2 branches = 100.00%

------------------------------------IF Branch------------------------------------
    275                                       23     Count coming in to IF
    275             1                          6             if (HADDR_Temp >= SLAVE_START_ADDR_7 && HADDR_Temp <= SLAVE_END_ADDR_7) begin
                                              17     All False Count
Branch totals: 2 hits of 2 branches = 100.00%


Condition Coverage:
    Enabled Coverage              Bins   Covered    Misses  Coverage
    ----------------              ----      ----    ------  --------
    Conditions                      27        11        16    40.74%

================================Condition Details================================

Condition Coverage for instance /tb_top/DUT --

  File design.sv
----------------Focused Condition View-------------------
Line       107 Item    1  (HSELAHB && ((HTRANS == 2) || (HTRANS == 3)))
Condition totals: 0 of 3 input terms covered = 0.00%

     Input Term   Covered  Reason for no coverage   Hint
    -----------  --------  -----------------------  --------------
        HSELAHB         N  '_0' not hit             Hit '_0'
  (HTRANS == 2)         N  '_0' not hit             Hit '_0'
  (HTRANS == 3)         N  '_0' not hit             Hit '_0'

     Rows:       Hits  FEC Target            Non-masking condition(s)      
 ---------  ---------  --------------------  -------------------------     
  Row   1:    ***0***  HSELAHB_0             -                             
  Row   2:          1  HSELAHB_1             ((HTRANS == 2) || (HTRANS == 3))
  Row   3:    ***0***  (HTRANS == 2)_0       (HSELAHB && ~(HTRANS == 3))   
  Row   4:          1  (HTRANS == 2)_1       HSELAHB                       
  Row   5:    ***0***  (HTRANS == 3)_0       (HSELAHB && ~(HTRANS == 2))   
  Row   6:          1  (HTRANS == 3)_1       (HSELAHB && ~(HTRANS == 2))   

----------------Focused Condition View-------------------
Line       198 Item    1  (valid && ~HWRITE)
Condition totals: 0 of 2 input terms covered = 0.00%

  Input Term   Covered  Reason for no coverage   Hint
 -----------  --------  -----------------------  --------------
       valid         N  No hits                  Hit '_0' and '_1'
      HWRITE         N  No hits                  Hit '_0' and '_1'

     Rows:       Hits  FEC Target            Non-masking condition(s)      
 ---------  ---------  --------------------  -------------------------     
  Row   1:    ***0***  valid_0               -                             
  Row   2:    ***0***  valid_1               ~HWRITE                       
  Row   3:    ***0***  HWRITE_0              valid                         
  Row   4:    ***0***  HWRITE_1              valid                         

----------------Focused Condition View-------------------
Line       200 Item    1  (valid && HWRITE)
Condition totals: 0 of 2 input terms covered = 0.00%

  Input Term   Covered  Reason for no coverage   Hint
 -----------  --------  -----------------------  --------------
       valid         N  No hits                  Hit '_0' and '_1'
      HWRITE         N  No hits                  Hit '_0' and '_1'

     Rows:       Hits  FEC Target            Non-masking condition(s)      
 ---------  ---------  --------------------  -------------------------     
  Row   1:    ***0***  valid_0               -                             
  Row   2:    ***0***  valid_1               HWRITE                        
  Row   3:    ***0***  HWRITE_0              valid                         
  Row   4:    ***0***  HWRITE_1              valid                         

----------------Focused Condition View-------------------
Line       214 Item    1  (valid && HWRITE)
Condition totals: 0 of 2 input terms covered = 0.00%

  Input Term   Covered  Reason for no coverage   Hint
 -----------  --------  -----------------------  --------------
       valid         N  No hits                  Hit '_0' and '_1'
      HWRITE         N  No hits                  Hit '_0' and '_1'

     Rows:       Hits  FEC Target            Non-masking condition(s)      
 ---------  ---------  --------------------  -------------------------     
  Row   1:    ***0***  valid_0               -                             
  Row   2:    ***0***  valid_1               HWRITE                        
  Row   3:    ***0***  HWRITE_0              valid                         
  Row   4:    ***0***  HWRITE_1              valid                         

----------------Focused Condition View-------------------
Line       216 Item    1  (~valid && HWRITE)
Condition totals: 0 of 2 input terms covered = 0.00%

  Input Term   Covered  Reason for no coverage   Hint
 -----------  --------  -----------------------  --------------
       valid         N  No hits                  Hit '_0' and '_1'
      HWRITE         N  No hits                  Hit '_0' and '_1'

     Rows:       Hits  FEC Target            Non-masking condition(s)      
 ---------  ---------  --------------------  -------------------------     
  Row   1:    ***0***  valid_0               HWRITE                        
  Row   2:    ***0***  valid_1               -                             
  Row   3:    ***0***  HWRITE_0              ~valid                        
  Row   4:    ***0***  HWRITE_1              ~valid                        

----------------Focused Condition View-------------------
Line       247 Item    1  ((HADDR_Temp >= 0) && (HADDR_Temp <= 255))
Condition totals: 1 of 2 input terms covered = 50.00%

           Input Term   Covered  Reason for no coverage   Hint
          -----------  --------  -----------------------  --------------
    (HADDR_Temp >= 0)         N  '_0' not hit             Hit '_0'
  (HADDR_Temp <= 255)         Y

     Rows:       Hits  FEC Target             Non-masking condition(s)      
 ---------  ---------  --------------------   -------------------------     
  Row   1:    ***0***  (HADDR_Temp >= 0)_0    -                             
  Row   2:          1  (HADDR_Temp >= 0)_1    (HADDR_Temp <= 255)           
  Row   3:          1  (HADDR_Temp <= 255)_0  (HADDR_Temp >= 0)             
  Row   4:          1  (HADDR_Temp <= 255)_1  (HADDR_Temp >= 0)             

----------------Focused Condition View-------------------
Line       251 Item    1  ((HADDR_Temp >= 256) && (HADDR_Temp <= 511))
Condition totals: 2 of 2 input terms covered = 100.00%

           Input Term   Covered  Reason for no coverage   Hint
          -----------  --------  -----------------------  --------------
  (HADDR_Temp >= 256)         Y
  (HADDR_Temp <= 511)         Y

     Rows:       Hits  FEC Target             Non-masking condition(s)      
 ---------  ---------  --------------------   -------------------------     
  Row   1:          1  (HADDR_Temp >= 256)_0  -                             
  Row   2:          1  (HADDR_Temp >= 256)_1  (HADDR_Temp <= 511)           
  Row   3:          1  (HADDR_Temp <= 511)_0  (HADDR_Temp >= 256)           
  Row   4:          1  (HADDR_Temp <= 511)_1  (HADDR_Temp >= 256)           

----------------Focused Condition View-------------------
Line       255 Item    1  ((HADDR_Temp >= 512) && (HADDR_Temp <= 767))
Condition totals: 2 of 2 input terms covered = 100.00%

           Input Term   Covered  Reason for no coverage   Hint
          -----------  --------  -----------------------  --------------
  (HADDR_Temp >= 512)         Y
  (HADDR_Temp <= 767)         Y

     Rows:       Hits  FEC Target             Non-masking condition(s)      
 ---------  ---------  --------------------   -------------------------     
  Row   1:          1  (HADDR_Temp >= 512)_0  -                             
  Row   2:          1  (HADDR_Temp >= 512)_1  (HADDR_Temp <= 767)           
  Row   3:          1  (HADDR_Temp <= 767)_0  (HADDR_Temp >= 512)           
  Row   4:          1  (HADDR_Temp <= 767)_1  (HADDR_Temp >= 512)           

----------------Focused Condition View-------------------
Line       259 Item    1  ((HADDR_Temp >= 768) && (HADDR_Temp <= 1023))
Condition totals: 2 of 2 input terms covered = 100.00%

            Input Term   Covered  Reason for no coverage   Hint
           -----------  --------  -----------------------  --------------
   (HADDR_Temp >= 768)         Y
  (HADDR_Temp <= 1023)         Y

     Rows:       Hits  FEC Target              Non-masking condition(s)      
 ---------  ---------  --------------------    -------------------------     
  Row   1:          1  (HADDR_Temp >= 768)_0   -                             
  Row   2:          1  (HADDR_Temp >= 768)_1   (HADDR_Temp <= 1023)          
  Row   3:          1  (HADDR_Temp <= 1023)_0  (HADDR_Temp >= 768)           
  Row   4:          1  (HADDR_Temp <= 1023)_1  (HADDR_Temp >= 768)           

----------------Focused Condition View-------------------
Line       263 Item    1  ((HADDR_Temp >= 1024) && (HADDR_Temp <= 1279))
Condition totals: 0 of 2 input terms covered = 0.00%

            Input Term   Covered  Reason for no coverage   Hint
           -----------  --------  -----------------------  --------------
  (HADDR_Temp >= 1024)         N  '_1' not hit             Hit '_1'
  (HADDR_Temp <= 1279)         N  '_1' not hit             Hit '_1'

     Rows:       Hits  FEC Target              Non-masking condition(s)      
 ---------  ---------  --------------------    -------------------------     
  Row   1:          1  (HADDR_Temp >= 1024)_0  -                             
  Row   2:    ***0***  (HADDR_Temp >= 1024)_1  (HADDR_Temp <= 1279)          
  Row   3:          1  (HADDR_Temp <= 1279)_0  (HADDR_Temp >= 1024)          
  Row   4:    ***0***  (HADDR_Temp <= 1279)_1  (HADDR_Temp >= 1024)          

----------------Focused Condition View-------------------
Line       267 Item    1  ((HADDR_Temp >= 1280) && (HADDR_Temp <= 1535))
Condition totals: 0 of 2 input terms covered = 0.00%

            Input Term   Covered  Reason for no coverage   Hint
           -----------  --------  -----------------------  --------------
  (HADDR_Temp >= 1280)         N  '_1' not hit             Hit '_1'
  (HADDR_Temp <= 1535)         N  '_1' not hit             Hit '_1'

     Rows:       Hits  FEC Target              Non-masking condition(s)      
 ---------  ---------  --------------------    -------------------------     
  Row   1:          1  (HADDR_Temp >= 1280)_0  -                             
  Row   2:    ***0***  (HADDR_Temp >= 1280)_1  (HADDR_Temp <= 1535)          
  Row   3:          1  (HADDR_Temp <= 1535)_0  (HADDR_Temp >= 1280)          
  Row   4:    ***0***  (HADDR_Temp <= 1535)_1  (HADDR_Temp >= 1280)          

----------------Focused Condition View-------------------
Line       271 Item    1  ((HADDR_Temp >= 1536) && (HADDR_Temp <= 1791))
Condition totals: 2 of 2 input terms covered = 100.00%

            Input Term   Covered  Reason for no coverage   Hint
           -----------  --------  -----------------------  --------------
  (HADDR_Temp >= 1536)         Y
  (HADDR_Temp <= 1791)         Y

     Rows:       Hits  FEC Target              Non-masking condition(s)      
 ---------  ---------  --------------------    -------------------------     
  Row   1:          1  (HADDR_Temp >= 1536)_0  -                             
  Row   2:          1  (HADDR_Temp >= 1536)_1  (HADDR_Temp <= 1791)          
  Row   3:          1  (HADDR_Temp <= 1791)_0  (HADDR_Temp >= 1536)          
  Row   4:          1  (HADDR_Temp <= 1791)_1  (HADDR_Temp >= 1536)          

----------------Focused Condition View-------------------
Line       275 Item    1  ((HADDR_Temp >= 1792) && (HADDR_Temp <= 2047))
Condition totals: 2 of 2 input terms covered = 100.00%

            Input Term   Covered  Reason for no coverage   Hint
           -----------  --------  -----------------------  --------------
  (HADDR_Temp >= 1792)         Y
  (HADDR_Temp <= 2047)         Y

     Rows:       Hits  FEC Target              Non-masking condition(s)      
 ---------  ---------  --------------------    -------------------------     
  Row   1:          1  (HADDR_Temp >= 1792)_0  -                             
  Row   2:          1  (HADDR_Temp >= 1792)_1  (HADDR_Temp <= 2047)          
  Row   3:          1  (HADDR_Temp <= 2047)_0  (HADDR_Temp >= 1792)          
  Row   4:          1  (HADDR_Temp <= 2047)_1  (HADDR_Temp >= 1792)          


FSM Coverage:
    Enabled Coverage              Bins      Hits    Misses  Coverage
    ----------------              ----      ----    ------  --------
    FSM States                       8         1         7    12.50%
    FSM Transitions                 22         0        22     0.00%

================================FSM Details================================

FSM Coverage for instance /tb_top/DUT --

FSM_ID: current_state
    Current State Object : current_state
    ----------------------
    State Value MapInfo :
    ---------------------
Line          State Name               Value
----          ----------               -----
 130                IDLE                   0
 154              W_WAIT                   2
 145                READ                   1
 223            R_ENABLE                   7
 183             WRITE_P                   4
 170               WRITE                   3
 207          W_ENABLE_P                   6
 193            W_ENABLE                   5
    Covered States :
    ----------------
                   State           Hit_count
                   -----           ---------
                    IDLE                  21          
    Uncovered States :
    ------------------
                   State
                   -----
                  W_WAIT
                    READ
                R_ENABLE
                 WRITE_P
                   WRITE
              W_ENABLE_P
                W_ENABLE
    Uncovered Transitions :
    -----------------------
Line            Trans_ID          Transition          
----            --------          ----------          
 142                   0          IDLE -> W_WAIT      
 140                   1          IDLE -> READ        
 165                   2          W_WAIT -> WRITE_P   
 163                   3          W_WAIT -> WRITE     
 122                   4          W_WAIT -> IDLE      
 152                   5          READ -> R_ENABLE    
 122                   6          READ -> IDLE        
 235                   7          R_ENABLE -> W_WAIT  
 233                   8          R_ENABLE -> READ    
 231                   9          R_ENABLE -> IDLE    
 191                  10          WRITE_P -> W_ENABLE_P
 122                  11          WRITE_P -> IDLE     
 181                  12          WRITE -> W_ENABLE_P 
 179                  13          WRITE -> W_ENABLE   
 122                  14          WRITE -> IDLE       
 219                  15          W_ENABLE_P -> READ  
 217                  16          W_ENABLE_P -> WRITE 
 215                  17          W_ENABLE_P -> WRITE_P
 122                  18          W_ENABLE_P -> IDLE  
 203                  19          W_ENABLE -> IDLE    
 201                  20          W_ENABLE -> W_WAIT  
 199                  21          W_ENABLE -> READ    


    Summary                       Bins      Hits    Misses  Coverage
    -------                       ----      ----    ------  --------
        FSM States                   8         1         7    12.50%
        FSM Transitions             22         0        22     0.00%
Statement Coverage:
    Enabled Coverage              Bins      Hits    Misses  Coverage
    ----------------              ----      ----    ------  --------
    Statements                      91        29        62    31.86%

================================Statement Details================================

Statement Coverage for instance /tb_top/DUT --

    Line         Item                      Count     Source 
    ----         ----                      -----     ------ 
  File design.sv
    48                                               module ahb2apb 
    49                                                   #(parameter NO_OF_SLAVES = 8,
    50                                                     parameter ADDR_WIDTH = 32,
    51                                                     parameter DATA_WIDTH = 32,
    52                                                     parameter SLAVE_START_ADDR_0 = 32'h000,
    53                                                     parameter SLAVE_END_ADDR_0 = 32'h0ff,
    54                                                     parameter SLAVE_START_ADDR_1 = 32'h100,
    55                                                     parameter SLAVE_END_ADDR_1 = 32'h1ff,
    56                                                     parameter SLAVE_START_ADDR_2 = 32'h200,
    57                                                     parameter SLAVE_END_ADDR_2 = 32'h2ff,
    58                                                     parameter SLAVE_START_ADDR_3 = 32'h300,
    59                                                     parameter SLAVE_END_ADDR_3 = 32'h3ff,
    60                                                     parameter SLAVE_START_ADDR_4 = 32'h400,
    61                                                     parameter SLAVE_END_ADDR_4 = 32'h4ff,
    62                                                     parameter SLAVE_START_ADDR_5 = 32'h500,
    63                                                     parameter SLAVE_END_ADDR_5 = 32'h5ff,
    64                                                     parameter SLAVE_START_ADDR_6 = 32'h600,
    65                                                     parameter SLAVE_END_ADDR_6 = 32'h6ff,
    66                                                     parameter SLAVE_START_ADDR_7 = 32'h700,
    67                                                     parameter SLAVE_END_ADDR_7 = 32'h7ff)
    68                                               
    69                                                   (input wire HCLK, HRESETn,
    70                                                    input wire [ADDR_WIDTH-1:0] HADDR,
    71                                                    input wire [1:0] HTRANS,
    72                                                    input wire HWRITE,
    73                                                    input wire [DATA_WIDTH-1:0] HWDATA,
    74                                                    input wire HSELAHB,
    75                                                    output reg [DATA_WIDTH-1:0] HRDATA,
    76                                                    output reg HREADY,
    77                                                    output reg HRESP,
    78                                                    input wire [DATA_WIDTH-1:0] PRDATA [NO_OF_SLAVES-1:0],
    79                                                    input wire [NO_OF_SLAVES-1:0] PSLVERR,
    80                                                    input wire [NO_OF_SLAVES-1:0] PREADY,
    81                                                    output reg [DATA_WIDTH-1:0] PWDATA,
    82                                                    output reg PENABLE,
    83                                                    output reg [NO_OF_SLAVES-1:0] PSELx,
    84                                                    output reg [ADDR_WIDTH-1:0] PADDR,
    85                                                    output reg PWRITE);
    86                                               
    87                                                   // AHB Signal assignments
    88                                                   reg [ADDR_WIDTH-1:0] HADDR_Temp;
    89                                                   reg [ADDR_WIDTH-1:0] HADDR_Temp2;
    90                                                   reg [DATA_WIDTH-1:0] HWDATA_Temp;
    91                                                   reg [NO_OF_SLAVES-1:0] PSELx_Temp;
    92                                                   reg [NO_OF_SLAVES-1:0] PSELx_Curr;
    93                                                   reg [2:0] Slave_number;
    94                                               
    95                                                   // States for FSM
    96                                                   typedef enum {IDLE, READ, W_WAIT, WRITE, WRITE_P, W_ENABLE, W_ENABLE_P, R_ENABLE} states;
    97                                                   states current_state, next_state;
    98                                               
    99                                                   // Control signals
    100                                                  reg valid;
    101                                                  reg HWRITE_Reg;
    102                                              
    103                                                  // Valid signal handling
    104             1                          6         always @(negedge HCLK) begin
    105                                                      if (HRESETn == 1'b0)
    106             1                    ***0***                 valid <= 1'b0;
    107                                                      else if (HSELAHB && (HTRANS == 2'b10 || HTRANS == 2'b11))
    108             1                          5                 valid <= 1'b1;
    109                                                      else
    110             1                          1                 valid <= 1'b0;
    111                                                  end
    112                                              
    113                                                  // State change assignment
    114             1                         21         always @(negedge HCLK) begin
    115                                                      if (PSLVERR[Slave_number] == 1'b0) begin
    116                                                          if (HRESETn == 1'b0)
    117             1                    ***0***                     current_state <= IDLE;
    118                                                          else
    119             1                    ***0***                     current_state <= next_state;
    120             1                    ***0***                 HRESP <= 1'b0;
    121                                                      end else begin
    122             1                         21                 current_state <= IDLE;
    123             1                         21                 HRESP <= 1'b1;
    124                                                      end
    125                                                  end
    126                                              
    127                                                  // FSM transitions
    128             1                         23         always @(posedge HCLK) begin
    129                                                      case (current_state)
    130                                                          IDLE: begin
    131             1                         23                     PSELx = 8'b0;
    132             1                         23                     PENABLE = 1'b0;
    133             1                         23                     HREADY = 1'b1;
    134                                              
    135                                                              if (valid == 1'b0)
    136             1                          1                         next_state <= IDLE;
    137                                                              else if (valid == 1'b1) begin
    138             1                         22                         HADDR_Temp = HADDR;
    139                                                                  if (HWRITE == 1'b0) // Read
    140             1                         10                             next_state <= READ;
    141                                                                  else // Write
    142             1                         12                             next_state <= W_WAIT;
    143                                                              end
    144                                                          end
    145                                                          READ: begin
    146             1                    ***0***                     PSELx = PSELx_Curr;
    147             1                    ***0***                     PADDR = HADDR_Temp;
    148             1                    ***0***                     PWRITE = 1'b0; // Read
    149             1                    ***0***                     PENABLE = 1'b0;
    150             1                    ***0***                     HREADY = 1'b1;
    151                                              
    152             1                    ***0***                     next_state <= R_ENABLE;
    153                                                          end
    154                                                          W_WAIT: begin
    155             1                    ***0***                     PENABLE = 1'b0;
    156             1                    ***0***                     HWRITE_Reg = HWRITE;
    157             1                    ***0***                     PSELx_Temp = PSELx_Curr;
    158             1                    ***0***                     HWDATA_Temp = HWDATA;
    159             1                    ***0***                     HADDR_Temp2 = HADDR_Temp;
    160                                              
    161                                                              if (valid == 1'b0) begin
    162             1                    ***0***                         HREADY = 1'b1;
    163             1                    ***0***                         next_state <= WRITE;
    164                                                              end else if (valid == 1'b1) begin
    165             1                    ***0***                         next_state <= WRITE_P;
    166             1                    ***0***                         HADDR_Temp = HADDR;
    167             1                    ***0***                         HREADY = 1'b0;
    168                                                              end
    169                                                          end
    170                                                          WRITE: begin
    171             1                    ***0***                     HREADY = 1'b1;
    172             1                    ***0***                     PSELx = PSELx_Temp;
    173             1                    ***0***                     PADDR = HADDR_Temp2;
    174             1                    ***0***                     PWDATA = HWDATA_Temp;
    175             1                    ***0***                     PWRITE = 1'b1; // Write
    176             1                    ***0***                     PENABLE = 1'b0;
    177                                              
    178                                                              if (valid == 1'b0)
    179             1                    ***0***                         next_state <= W_ENABLE;
    180                                                              else if (valid == 1'b1)
    181             1                    ***0***                         next_state <= W_ENABLE_P;
    182                                                          end
    183                                                          WRITE_P: begin
    184             1                    ***0***                     PSELx = PSELx_Temp;
    185             1                    ***0***                     PADDR = HADDR_Temp2;
    186             1                    ***0***                     PWDATA = HWDATA_Temp;
    187             1                    ***0***                     HWDATA_Temp = HWDATA;
    188             1                    ***0***                     PWRITE = 1'b1; // Write
    189             1                    ***0***                     PENABLE = 1'b0;
    190             1                    ***0***                     HREADY = 1'b1;
    191             1                    ***0***                     next_state <= W_ENABLE_P;
    192                                                          end
    193                                                          W_ENABLE: begin
    194                                                              if (PREADY[Slave_number] == 1'b1) begin
    195             1                    ***0***                         PENABLE = 1'b1;
    196             1                    ***0***                         HREADY = 1'b0;
    197                                              
    198                                                                  if (valid == 1'b1 && HWRITE == 1'b0)
    199             1                    ***0***                             next_state <= READ;
    200                                                                  else if (valid == 1'b1 && HWRITE == 1'b1)
    201             1                    ***0***                             next_state <= W_WAIT;
    202                                                                  else if (valid == 1'b0)
    203             1                    ***0***                             next_state <= IDLE;
    204                                                              end else
    205             1                    ***0***                         next_state <= W_ENABLE;
    206                                                          end
    207                                                          W_ENABLE_P: begin
    208                                                              if (PREADY[Slave_number] == 1'b1) begin
    209             1                    ***0***                         PENABLE = 1'b1;
    210             1                    ***0***                         HREADY = 1'b0;
    211             1                    ***0***                         PSELx_Temp = PSELx_Curr;
    212             1                    ***0***                         HADDR_Temp = HADDR;
    213                                              
    214                                                                  if (valid == 1'b1 && HWRITE == 1'b1)
    215             1                    ***0***                             next_state <= WRITE_P;
    216                                                                  else if (valid == 1'b0 && HWRITE == 1'b1)
    217             1                    ***0***                             next_state <= WRITE;
    218                                                                  else if (HWRITE == 1'b0)
    219             1                    ***0***                             next_state <= READ;
    220                                                              end else
    221             1                    ***0***                         next_state <= W_ENABLE_P;
    222                                                          end
    223                                                          R_ENABLE: begin
    224                                                              if (PREADY[Slave_number] == 1'b1) begin
    225             1                    ***0***                         PENABLE = 1'b1;
    226             1                    ***0***                         HRDATA = PRDATA[Slave_number];
    227             1                    ***0***                         HREADY = 1'b1;
    228             1                    ***0***                         HADDR_Temp = HADDR;
    229                                              
    230                                                                  if (valid == 1'b0)
    231             1                    ***0***                             next_state <= IDLE;
    232                                                                  else if (HWRITE == 1'b0)
    233             1                    ***0***                             next_state <= READ;
    234                                                                  else if (HWRITE == 1'b1)
    235             1                    ***0***                             next_state <= W_WAIT;
    236                                                              end else
    237             1                    ***0***                         next_state <= R_ENABLE;
    238                                                          end
    239                                                      endcase
    240                                                  end
    241                                              
    242                                                  // Slave selection logic
    243             1                         23         always @(posedge HCLK) begin
    244             1                         23             PSELx_Curr = 8'b0;
    245             1                         23             Slave_number = 3'b0;
    246                                              
    247                                                      if (HADDR_Temp >= SLAVE_START_ADDR_0 && HADDR_Temp <= SLAVE_END_ADDR_0) begin
    248             1                          4                 PSELx_Curr = 8'h01;
    249             1                          4                 Slave_number = 3'd0;
    250                                                      end
    251                                                      if (HADDR_Temp >= SLAVE_START_ADDR_1 && HADDR_Temp <= SLAVE_END_ADDR_1) begin
    252             1                          2                 PSELx_Curr = 8'h02;
    253             1                          2                 Slave_number = 3'd1;
    254                                                      end
    255                                                      if (HADDR_Temp >= SLAVE_START_ADDR_2 && HADDR_Temp <= SLAVE_END_ADDR_2) begin
    256             1                          4                 PSELx_Curr = 8'h04;
    257             1                          4                 Slave_number = 3'd2;
    258                                                      end
    259                                                      if (HADDR_Temp >= SLAVE_START_ADDR_3 && HADDR_Temp <= SLAVE_END_ADDR_3) begin
    260             1                          2                 PSELx_Curr = 8'h08;
    261             1                          2                 Slave_number = 3'd3;
    262                                                      end
    263                                                      if (HADDR_Temp >= SLAVE_START_ADDR_4 && HADDR_Temp <= SLAVE_END_ADDR_4) begin
    264             1                    ***0***                 PSELx_Curr = 8'h10;
    265             1                    ***0***                 Slave_number = 3'd4;
    266                                                      end
    267                                                      if (HADDR_Temp >= SLAVE_START_ADDR_5 && HADDR_Temp <= SLAVE_END_ADDR_5) begin
    268             1                    ***0***                 PSELx_Curr = 8'h20;
    269             1                    ***0***                 Slave_number = 3'd5;
    270                                                      end
    271                                                      if (HADDR_Temp >= SLAVE_START_ADDR_6 && HADDR_Temp <= SLAVE_END_ADDR_6) begin
    272             1                          1                 PSELx_Curr = 8'h40;
    273             1                          1                 Slave_number = 3'd6;
    274                                                      end
    275                                                      if (HADDR_Temp >= SLAVE_START_ADDR_7 && HADDR_Temp <= SLAVE_END_ADDR_7) begin
    276             1                          6                 PSELx_Curr = 8'h80;
    277             1                          6                 Slave_number = 3'd7;

Toggle Coverage:
    Enabled Coverage              Bins      Hits    Misses  Coverage
    ----------------              ----      ----    ------  --------
    Toggles                        638       126       512    19.74%

================================Toggle Details================================

Toggle Coverage for instance /tb_top/DUT --

                                              Node      1H->0L      0L->1H                          "Coverage"
                                              ---------------------------------------------------------------
                                        HADDR[0-3]           1           1                              100.00 
                                          HADDR[4]           0           1                               50.00 
                                       HADDR[5-10]           1           1                              100.00 
                                         HADDR[11]           0           1                               50.00 
                                      HADDR[12-31]           0           0                                0.00 
                                   HADDR_Temp[0-3]           1           1                              100.00 
                                     HADDR_Temp[4]           0           1                               50.00 
                                  HADDR_Temp[5-10]           1           1                              100.00 
                                    HADDR_Temp[11]           0           1                               50.00 
                                 HADDR_Temp[12-31]           0           0                                0.00 
                                 HADDR_Temp2[0-31]           0           0                                0.00 
                                              HCLK           1           1                              100.00 
                                      HRDATA[0-31]           0           0                                0.00 
                                            HREADY           0           0                                0.00 
                                           HRESETn           0           0                                0.00 
                                             HRESP           0           0                                0.00 
                                           HSELAHB           0           0                                0.00 
                                         HTRANS[0]           1           1                              100.00 
                                         HTRANS[1]           0           0                                0.00 
                                       HWDATA[0-8]           1           1                              100.00 
                                         HWDATA[9]           0           0                                0.00 
                                     HWDATA[10-11]           1           1                              100.00 
                                        HWDATA[12]           1           0                               50.00 
                                     HWDATA[13-21]           1           1                              100.00 
                                        HWDATA[22]           0           0                                0.00 
                                        HWDATA[23]           1           1                              100.00 
                                        HWDATA[24]           0           0                                0.00 
                                     HWDATA[25-28]           1           1                              100.00 
                                        HWDATA[29]           0           0                                0.00 
                                     HWDATA[30-31]           1           1                              100.00 
                                 HWDATA_Temp[0-31]           0           0                                0.00 
                                            HWRITE           1           1                              100.00 
                                        HWRITE_Reg           0           0                                0.00 
                                       PADDR[0-31]           0           0                                0.00 
                                           PENABLE           0           0                                0.00 
                                       PREADY[0-7]           0           0                                0.00 
                                        PSELx[0-7]           0           0                                0.00 
                                   PSELx_Curr[0-3]           1           1                              100.00 
                                   PSELx_Curr[4-5]           0           0                                0.00 
                                   PSELx_Curr[6-7]           1           1                              100.00 
                                   PSELx_Temp[0-7]           0           0                                0.00 
                                      PSLVERR[0-7]           0           0                                0.00 
                                      PWDATA[0-31]           0           0                                0.00 
                                            PWRITE           0           0                                0.00 
                                 Slave_number[0-2]           1           1                              100.00 
                                     current_state               ENUM type       Value       Count 
                                                                      IDLE           0        0.00 
                                                                      READ           0        0.00 
                                                                    W_WAIT           0        0.00 
                                                                     WRITE           0        0.00 
                                                                   WRITE_P           0        0.00 
                                                                  W_ENABLE           0        0.00 
                                                                W_ENABLE_P           0        0.00 
                                                                  R_ENABLE           0        0.00 
                                        next_state               ENUM type       Value       Count 
                                                                      IDLE           0        0.00 
                                                                      READ           2      100.00 
                                                                    W_WAIT           2      100.00 
                                                                     WRITE           0        0.00 
                                                                   WRITE_P           0        0.00 
                                                                  W_ENABLE           0        0.00 
                                                                W_ENABLE_P           0        0.00 
                                                                  R_ENABLE           0        0.00 
                                             valid           0           1                               50.00 

Total Node Count     =        327 
Toggled Node Count   =         61 
Untoggled Node Count =        266 

Toggle Coverage      =      19.74% (126 of 638 bins)

=================================================================================
=== Instance: /tb_top
=== Design Unit: work.tb_top
=================================================================================
Branch Coverage:
    Enabled Coverage              Bins      Hits    Misses  Coverage
    ----------------              ----      ----    ------  --------
    Branches                         2         1         1    50.00%

================================Branch Details================================

Branch Coverage for instance /tb_top

    Line         Item                      Count     Source 
    ----         ----                      -----     ------ 
  File testbench.sv
------------------------------------IF Branch------------------------------------
    59                                        12     Count coming in to IF
    59              1                    ***0***       if (hpvif.HADDR > MAX_VALID_ADDR) begin
    62              1                         12       end else begin
Branch totals: 1 hit of 2 branches = 50.00%


Condition Coverage:
    Enabled Coverage              Bins   Covered    Misses  Coverage
    ----------------              ----      ----    ------  --------
    Conditions                       1         0         1     0.00%

================================Condition Details================================

Condition Coverage for instance /tb_top --

  File testbench.sv
----------------Focused Condition View-------------------
Line       59 Item    1  (hpvif.HADDR > 4294967295)
Condition totals: 0 of 1 input term covered = 0.00%

                  Input Term   Covered  Reason for no coverage   Hint
                 -----------  --------  -----------------------  --------------
  (hpvif.HADDR > 4294967295)         N  '_1' not hit             Hit '_1'

     Rows:       Hits  FEC Target                    Non-masking condition(s)      
 ---------  ---------  --------------------          -------------------------     
  Row   1:          1  (hpvif.HADDR > 4294967295)_0  -                             
  Row   2:    ***0***  (hpvif.HADDR > 4294967295)_1  -                             


Statement Coverage:
    Enabled Coverage              Bins      Hits    Misses  Coverage
    ----------------              ----      ----    ------  --------
    Statements                      10         9         1    90.00%

================================Statement Details================================

Statement Coverage for instance /tb_top --

    Line         Item                      Count     Source 
    ----         ----                      -----     ------ 
  File testbench.sv
    7                                                module tb_top;
    8                                                
    9                                                  import uvm_pkg::*; 
    10                                                 import pkg::*; 
    11                                               
    12                                                 bit HCLK = 0;
    13                                                 bit PCLK = 0;
    14                                               
    15              1                         46       always #5 HCLK = ~HCLK;
    15              2                         45     
    16              1                         46       always #5 PCLK = ~PCLK;
    16              2                         45     
    17                                               
    18                                                 // Instantiate interface
    19                                                 ahb2apb_if #(8) hpvif(HCLK, PCLK);
    20                                               
    21                                                 // Define MAX_VALID_ADDR (you should replace this with your actual valid address range)
    22                                                 localparam MAX_VALID_ADDR = 32'hFFFF_FFFF;  // Example: Maximum address for your design
    23                                               
    24                                                 // Instantiate DUT and connect ports to interface
    25                                                 ahb2apb DUT (
    26                                                   .HCLK     (hpvif.HCLK),
    27                                                   .HRESETn  (hpvif.HRESETn),
    28                                                   .HADDR    (hpvif.HADDR),
    29                                                   .HTRANS   (hpvif.HTRANS),
    30                                                   .HWRITE   (hpvif.HWRITE),
    31                                                   .HWDATA   (hpvif.HWDATA),
    32                                                   .HSELAHB  (hpvif.HSELAHB),
    33                                                   .HRDATA   (hpvif.HRDATA),
    34                                                   .HREADY   (hpvif.HREADY),
    35                                                   .HRESP    (hpvif.HRESP),
    36                                                   .PRDATA   (hpvif.PRDATA),
    37                                                   .PSLVERR  (hpvif.PSLVERR),
    38                                                   .PREADY   (hpvif.PREADY),
    39                                                   .PWDATA   (hpvif.PWDATA),
    40                                                   .PENABLE  (hpvif.PENABLE),
    41                                                   .PSELx    (hpvif.PSELx),
    42                                                   .PADDR    (hpvif.PADDR),
    43                                                   .PWRITE   (hpvif.PWRITE)
    44                                                 );
    45                                               
    46                                                 // Pass the interface to UVM world
    47                                                 initial begin
    48              1                          1         uvm_config_db#(virtual ahb2apb_if)::set(null, "*", "vif", hpvif);
    49              1                          1         run_test("my_test");
    50                                                 end
    51                                               
    52                                                 // Dump waveforms
    53                                                 initial begin
    54              1                          1       $dumpfile("ahb2apb_wave.vcd");
    55              1                          1       $dumpvars(0, tb_top);  // Dump waveforms for signals inside tb_top
    56                                               end
    57              1                         12     always @(posedge HCLK) begin
    58                                                 // Check for out-of-range address but don't directly assign HRESP here
    59                                                 if (hpvif.HADDR > MAX_VALID_ADDR) begin
    60              1                    ***0***         $display("Error: Address 0x%h is out of range. Expected address <= 0x%h", hpvif.HADDR, MAX_VALID_ADDR);

Toggle Coverage:
    Enabled Coverage              Bins      Hits    Misses  Coverage
    ----------------              ----      ----    ------  --------
    Toggles                          4         4         0   100.00%

================================Toggle Details================================

Toggle Coverage for instance /tb_top --

                                              Node      1H->0L      0L->1H                          "Coverage"
                                              ---------------------------------------------------------------
                                              HCLK           1           1                              100.00 
                                              PCLK           1           1                              100.00 

Total Node Count     =          2 
Toggled Node Count   =          2 
Untoggled Node Count =          0 

Toggle Coverage      =     100.00% (4 of 4 bins)

=================================================================================
=== Instance: /pkg
=== Design Unit: work.pkg
=================================================================================

Assertion Coverage:
    Assertions                       4         1         3    25.00%
--------------------------------------------------------------------------------------------------------------------------------
Name                 File(Line)                   Failure      Pass     Vacuous    Disable    Attempt     Active Peak Active ATV
                                                  Count        Count    Count      Count      Count       Count  Count          
--------------------------------------------------------------------------------------------------------------------------------
/pkg/ahb_monitor/run_phase/assert_AHB_valid_transfer
                     ahb_monitor.sv(28)                 1         22          0          0         23          0           0 off
/pkg/apb_monitor/run_phase/#ublk#30487#25/immed__47
                     apb_monitor.sv(47)                23          0          0          0         23          0           0 off
/pkg/apb_monitor/run_phase/#ublk#30487#25/immed__46
                     apb_monitor.sv(46)                23          0          0          0         23          0           0 off
/pkg/ahb_sequence/body/immed__17
                     ahb_sequence.sv(17)                0          1          0          0          1          0           0 off
Branch Coverage:
    Enabled Coverage              Bins      Hits    Misses  Coverage
    ----------------              ----      ----    ------  --------
    Branches                       226        47       179    20.79%

================================Branch Details================================

Branch Coverage for instance /pkg

    Line         Item                      Count     Source 
    ----         ----                      -----     ------ 
  File cmn_seq_item.sv
------------------------------------IF Branch------------------------------------
    5                                    ***0***     Count coming in to IF
    5               1                    ***0***       `uvm_object_utils(cmn_seq_item)
    5               2                    ***0***       `uvm_object_utils(cmn_seq_item)
Branch totals: 0 hits of 2 branches = 0.00%

------------------------------------IF Branch------------------------------------
    5                                          1     Count coming in to IF
    5               3                    ***0***       `uvm_object_utils(cmn_seq_item)
                                               1     All False Count
Branch totals: 1 hit of 2 branches = 50.00%

------------------------------------IF Branch------------------------------------
    5                                    ***0***     Count coming in to IF
    5               4                    ***0***       `uvm_object_utils(cmn_seq_item)
    5               5                    ***0***       `uvm_object_utils(cmn_seq_item)
Branch totals: 0 hits of 2 branches = 0.00%

------------------------------------IF Branch------------------------------------
    5                                          1     Count coming in to IF
    5               6                    ***0***       `uvm_object_utils(cmn_seq_item)
                                               1     All False Count
Branch totals: 1 hit of 2 branches = 50.00%

------------------------------------IF Branch------------------------------------
    5                                    ***0***     Count coming in to IF
    5               7                    ***0***       `uvm_object_utils(cmn_seq_item)
                                         ***0***     All False Count
Branch totals: 0 hits of 2 branches = 0.00%

------------------------------------IF Branch------------------------------------
    31                                   ***0***     Count coming in to IF
    31              1                    ***0***         if (!randomize(operation)) begin
                                         ***0***     All False Count
Branch totals: 0 hits of 2 branches = 0.00%

------------------------------------IF Branch------------------------------------
    32                                   ***0***     Count coming in to IF
    32              1                    ***0***           `uvm_error("RANDOMIZE_ERROR", "Failed to randomize operation.")
                                         ***0***     All False Count
Branch totals: 0 hits of 2 branches = 0.00%

------------------------------------IF Branch------------------------------------
    34                                   ***0***     Count coming in to IF
    34              1                    ***0***         if (!randomize(BURSTMODE)) begin
                                         ***0***     All False Count
Branch totals: 0 hits of 2 branches = 0.00%

------------------------------------IF Branch------------------------------------
    35                                   ***0***     Count coming in to IF
    35              1                    ***0***           `uvm_error("RANDOMIZE_ERROR", "Failed to randomize burst mode.")
                                         ***0***     All False Count
Branch totals: 0 hits of 2 branches = 0.00%

------------------------------------IF Branch------------------------------------
    37                                   ***0***     Count coming in to IF
    37              1                    ***0***         if (!randomize(HSIZE)) begin
                                         ***0***     All False Count
Branch totals: 0 hits of 2 branches = 0.00%

------------------------------------IF Branch------------------------------------
    38                                   ***0***     Count coming in to IF
    38              1                    ***0***           `uvm_error("RANDOMIZE_ERROR", "Failed to randomize HSIZE.")
                                         ***0***     All False Count
Branch totals: 0 hits of 2 branches = 0.00%


  File ahb_driver.sv
------------------------------------IF Branch------------------------------------
    16                                         1     Count coming in to IF
    16              1                    ***0***         if (!uvm_config_db#(virtual ahb2apb_if)::get(this, "", "vif", vif))
                                               1     All False Count
Branch totals: 1 hit of 2 branches = 50.00%

------------------------------------IF Branch------------------------------------
    17                                   ***0***     Count coming in to IF
    17              1                    ***0***           `uvm_fatal("AHB_DRIVER", "Virtual interface not set")
                                         ***0***     All False Count
Branch totals: 0 hits of 2 branches = 0.00%

------------------------------------IF Branch------------------------------------
    37                                        11     Count coming in to IF
    37              1                          6         vif.HTRANS <= (tr.operation == tr.READ) ? `T_NONSEQ : `T_SEQ;
    37              2                          5         vif.HTRANS <= (tr.operation == tr.READ) ? `T_NONSEQ : `T_SEQ;
Branch totals: 2 hits of 2 branches = 100.00%

------------------------------------IF Branch------------------------------------
    40                                        12     Count coming in to IF
    40              1                         12         `uvm_info("AHB_DRIVER", $sformatf("Transaction started: Addr=0x%0h, Data=0x%0h, op=%0s, HREADY=%0h, HRESP=%0h",
                                         ***0***     All False Count
Branch totals: 1 hit of 2 branches = 50.00%

------------------------------------IF Branch------------------------------------
    40                                        11     Count coming in to IF
    40              2                          6         `uvm_info("AHB_DRIVER", $sformatf("Transaction started: Addr=0x%0h, Data=0x%0h, op=%0s, HREADY=%0h, HRESP=%0h",
    40              3                          5         `uvm_info("AHB_DRIVER", $sformatf("Transaction started: Addr=0x%0h, Data=0x%0h, op=%0s, HREADY=%0h, HRESP=%0h",
Branch totals: 2 hits of 2 branches = 100.00%

------------------------------------IF Branch------------------------------------
    45                                        12     Count coming in to IF
    45              1                         12         if (vif.HRESP == `ERROR) begin
    47              1                    ***0***         end else begin
Branch totals: 1 hit of 2 branches = 50.00%

------------------------------------IF Branch------------------------------------
    46                                        12     Count coming in to IF
    46              1                         12           `uvm_warning("AHB_DRIVER", $sformatf("Warning: Error Response at Address 0x%0h, HRESP=%0h", tr.ADDR, vif.HRESP));
                                         ***0***     All False Count
Branch totals: 1 hit of 2 branches = 50.00%

------------------------------------IF Branch------------------------------------
    48                                   ***0***     Count coming in to IF
    48              1                    ***0***           if (tr.operation == tr.READ) begin
                                         ***0***     All False Count
Branch totals: 0 hits of 2 branches = 0.00%

------------------------------------IF Branch------------------------------------
    50                                   ***0***     Count coming in to IF
    50              1                    ***0***             `uvm_info("AHB_DRIVER", $sformatf("Read Data: Addr=0x%0h, Data=0x%0h", tr.ADDR, tr.DATA), UVM_LOW);
                                         ***0***     All False Count
Branch totals: 0 hits of 2 branches = 0.00%

------------------------------------IF Branch------------------------------------
    53                                   ***0***     Count coming in to IF
    53              1                    ***0***           `uvm_info("AHB_DRIVER", $sformatf("Transaction completed: Addr=0x%0h, Data=0x%0h", tr.ADDR, tr.DATA), UVM_LOW);
                                         ***0***     All False Count
Branch totals: 0 hits of 2 branches = 0.00%

------------------------------------IF Branch------------------------------------
    59                                        11     Count coming in to IF
    59              1                         11         if (vif.HREADY && (vif.HRESP != 2'b00)) begin
                                         ***0***     All False Count
Branch totals: 1 hit of 2 branches = 50.00%

------------------------------------IF Branch------------------------------------
    60                                        11     Count coming in to IF
    60              1                         11           `uvm_warning("AHB_DRIVER", $sformatf("Warning: Invalid HRESP or HREADY signal during transaction. Addr=0x%0h, HRESP=%0h", tr.ADDR, vif.HRESP));
                                         ***0***     All False Count
Branch totals: 1 hit of 2 branches = 50.00%


  File apb_driver.sv
------------------------------------IF Branch------------------------------------
    15                                         1     Count coming in to IF
    15              1                    ***0***         if (!uvm_config_db#(virtual ahb2apb_if)::get(this, "", "vif", vif))
                                               1     All False Count
Branch totals: 1 hit of 2 branches = 50.00%

------------------------------------IF Branch------------------------------------
    16                                   ***0***     Count coming in to IF
    16              1                    ***0***           `uvm_fatal("APB_DRIVER", "Virtual interface not set")
                                         ***0***     All False Count
Branch totals: 0 hits of 2 branches = 0.00%

------------------------------------IF Branch------------------------------------
    18                                         1     Count coming in to IF
    18              1                          1         `uvm_info("APB_DRIVER", "Build phase completed", UVM_LOW)
                                         ***0***     All False Count
Branch totals: 1 hit of 2 branches = 50.00%

------------------------------------IF Branch------------------------------------
    25                                   ***0***     Count coming in to IF
    25              1                    ***0***           `uvm_info("APB_DRIVER", $sformatf("Received item: Addr=0x%0h, op=%0s", req.ADDR, (req.operation == req.READ ? "READ" : "WRITE")), UVM_LOW)
                                         ***0***     All False Count
Branch totals: 0 hits of 2 branches = 0.00%

------------------------------------IF Branch------------------------------------
    25                                   ***0***     Count coming in to IF
    25              2                    ***0***           `uvm_info("APB_DRIVER", $sformatf("Received item: Addr=0x%0h, op=%0s", req.ADDR, (req.operation == req.READ ? "READ" : "WRITE")), UVM_LOW)
    25              3                    ***0***           `uvm_info("APB_DRIVER", $sformatf("Received item: Addr=0x%0h, op=%0s", req.ADDR, (req.operation == req.READ ? "READ" : "WRITE")), UVM_LOW)
Branch totals: 0 hits of 2 branches = 0.00%

------------------------------------IF Branch------------------------------------
    37                                   ***0***     Count coming in to IF
    37              1                    ***0***         if (tr.operation == tr.WRITE) begin
    50              1                    ***0***         else begin
Branch totals: 0 hits of 2 branches = 0.00%

------------------------------------IF Branch------------------------------------
    40                                   ***0***     Count coming in to IF
    40              1                    ***0***           `uvm_info("APB_DRIVER", $sformatf("WRITE Detected: Addr=0x%0h Data=0x%0h", vif.PADDR, vif.PWDATA), UVM_LOW);
                                         ***0***     All False Count
Branch totals: 0 hits of 2 branches = 0.00%

------------------------------------IF Branch------------------------------------
    55                                   ***0***     Count coming in to IF
    55              1                    ***0***           `uvm_info("APB_DRIVER", $sformatf("READ Detected: Sending PRDATA[Slave %0d]=0x%0h", slave, tr.DATA), UVM_LOW);
                                         ***0***     All False Count
Branch totals: 0 hits of 2 branches = 0.00%


  File ahb_monitor.sv
------------------------------------IF Branch------------------------------------
    17                                         1     Count coming in to IF
    17              1                    ***0***         if (!uvm_config_db#(virtual ahb2apb_if)::get(this, "", "vif", vif))
                                               1     All False Count
Branch totals: 1 hit of 2 branches = 50.00%

------------------------------------IF Branch------------------------------------
    18                                   ***0***     Count coming in to IF
    18              1                    ***0***           `uvm_fatal("AHB_MONITOR", "Virtual interface not set!")
                                         ***0***     All False Count
Branch totals: 0 hits of 2 branches = 0.00%

------------------------------------IF Branch------------------------------------
    20                                         1     Count coming in to IF
    20              1                          1         `uvm_info("AHB_MONITOR", "Build phase completed", UVM_LOW)
                                         ***0***     All False Count
Branch totals: 1 hit of 2 branches = 50.00%

------------------------------------IF Branch------------------------------------
    30                                         1     Count coming in to IF
    30              1                          1             else `uvm_error("AHB_ASSERTION", $sformatf("Invalid AHB transfer! HSEL=%0b, HTRANS=%0b at time %0t", vif.HSELAHB, vif.HTRANS, $time));
                                         ***0***     All False Count
Branch totals: 1 hit of 2 branches = 50.00%

------------------------------------IF Branch------------------------------------
    32                                        23     Count coming in to IF
    32              1                         22           if (vif.HSELAHB && vif.HREADY) begin
                                               1     All False Count
Branch totals: 2 hits of 2 branches = 100.00%

------------------------------------IF Branch------------------------------------
    38                                        22     Count coming in to IF
    38              1                         10             if (vif.HWRITE == tr.WRITE) begin
    41              1                         12             end else begin
Branch totals: 2 hits of 2 branches = 100.00%

------------------------------------IF Branch------------------------------------
    40                                        10     Count coming in to IF
    40              1                         10               `uvm_info("AHB_MONITOR", $sformatf("Captured WRITE transaction: Addr=0x%0h, Data=0x%0h, HRESP=%0b", tr.ADDR, tr.DATA, tr.HRESP), UVM_LOW)
                                         ***0***     All False Count
Branch totals: 1 hit of 2 branches = 50.00%

------------------------------------IF Branch------------------------------------
    43                                        12     Count coming in to IF
    43              1                         12               `uvm_info("AHB_MONITOR", $sformatf("Captured READ transaction: Addr=0x%0h, Data=0x%0h, HRESP=%0b", tr.ADDR, tr.DATA, tr.HRESP), UVM_LOW)
                                         ***0***     All False Count
Branch totals: 1 hit of 2 branches = 50.00%


  File apb_monitor.sv
------------------------------------IF Branch------------------------------------
    17                                         1     Count coming in to IF
    17              1                    ***0***         if (!uvm_config_db#(virtual ahb2apb_if)::get(this, "", "vif", vif))
                                               1     All False Count
Branch totals: 1 hit of 2 branches = 50.00%

------------------------------------IF Branch------------------------------------
    18                                   ***0***     Count coming in to IF
    18              1                    ***0***           `uvm_fatal("APB_MONITOR", "Virtual interface not set!")
                                         ***0***     All False Count
Branch totals: 0 hits of 2 branches = 0.00%

------------------------------------IF Branch------------------------------------
    20                                         1     Count coming in to IF
    20              1                          1         `uvm_info("APB_MONITOR", "Build phase completed", UVM_LOW)
                                         ***0***     All False Count
Branch totals: 1 hit of 2 branches = 50.00%

------------------------------------IF Branch------------------------------------
    29                                       184     Count coming in to IF
    29              1                    ***0***             if (vif.PSELx[slave] && vif.PENABLE) begin
                                             184     All False Count
Branch totals: 1 hit of 2 branches = 50.00%

------------------------------------IF Branch------------------------------------
    33                                   ***0***     Count coming in to IF
    33              1                    ***0***               if (vif.PWRITE == tr.WRITE) begin
    36              1                    ***0***               end else begin
Branch totals: 0 hits of 2 branches = 0.00%

------------------------------------IF Branch------------------------------------
    35                                   ***0***     Count coming in to IF
    35              1                    ***0***                 `uvm_info("APB_MONITOR", $sformatf("WRITE Detected: Slave=%0d Addr=0x%0h Data=0x%0h", slave, vif.PADDR, tr.DATA), UVM_LOW)
                                         ***0***     All False Count
Branch totals: 0 hits of 2 branches = 0.00%

------------------------------------IF Branch------------------------------------
    38                                   ***0***     Count coming in to IF
    38              1                    ***0***                 `uvm_info("APB_MONITOR", $sformatf("READ Detected: Slave=%0d Addr=0x%0h Data=0x%0h", slave, vif.PADDR, tr.DATA), UVM_LOW)
                                         ***0***     All False Count
Branch totals: 0 hits of 2 branches = 0.00%

------------------------------------IF Branch------------------------------------
    46                                        23     Count coming in to IF
    46              1                         23           assert (vif.PSELx != 0) else `uvm_error("APB_MONITOR", "PSELx is not set for any slave while PENABLE is high!");
                                         ***0***     All False Count
Branch totals: 1 hit of 2 branches = 50.00%

------------------------------------IF Branch------------------------------------
    47                                        23     Count coming in to IF
    47              1                         23           assert (vif.PWRITE == 0 || vif.PWDATA != '0) else `uvm_error("APB_MONITOR", $sformatf("Write operation with zero data at Addr=0x%0h", vif.PADDR));
                                         ***0***     All False Count
Branch totals: 1 hit of 2 branches = 50.00%


  File ahb_agent.sv
------------------------------------IF Branch------------------------------------
    19                                         1     Count coming in to IF
    19              1                    ***0***         if (!uvm_config_db#(virtual ahb2apb_if)::get(this, "", "vif", vif))
                                               1     All False Count
Branch totals: 1 hit of 2 branches = 50.00%

------------------------------------IF Branch------------------------------------
    20                                   ***0***     Count coming in to IF
    20              1                    ***0***           `uvm_fatal("AGENT", "Cannot get() ahb2apb_if from config DB");
                                         ***0***     All False Count
Branch totals: 0 hits of 2 branches = 0.00%


  File apb_agent.sv
------------------------------------IF Branch------------------------------------
    19                                         1     Count coming in to IF
    19              1                          1         `uvm_info("APB_AGENT", "Starting build phase...", UVM_LOW)
                                         ***0***     All False Count
Branch totals: 1 hit of 2 branches = 50.00%

------------------------------------IF Branch------------------------------------
    21                                         1     Count coming in to IF
    21              1                    ***0***         if (!uvm_config_db#(virtual ahb2apb_if)::get(this, "", "vif", vif))
                                               1     All False Count
Branch totals: 1 hit of 2 branches = 50.00%

------------------------------------IF Branch------------------------------------
    22                                   ***0***     Count coming in to IF
    22              1                    ***0***           `uvm_fatal("AGENT", "Cannot get() ahb2apb_if from config DB");
                                         ***0***     All False Count
Branch totals: 0 hits of 2 branches = 0.00%

------------------------------------IF Branch------------------------------------
    28                                         1     Count coming in to IF
    28              1                          1         `uvm_info("APB_AGENT", "Build phase completed", UVM_LOW)
                                         ***0***     All False Count
Branch totals: 1 hit of 2 branches = 50.00%

------------------------------------IF Branch------------------------------------
    34                                         1     Count coming in to IF
    34              1                          1         `uvm_info("APB_AGENT", "Connecting driver and sequencer...", UVM_LOW)
                                         ***0***     All False Count
Branch totals: 1 hit of 2 branches = 50.00%

------------------------------------IF Branch------------------------------------
    38                                         1     Count coming in to IF
    38              1                          1         `uvm_info("APB_AGENT", "Driver and sequencer connected", UVM_LOW)
                                         ***0***     All False Count
Branch totals: 1 hit of 2 branches = 50.00%


  File coverage.sv
------------------------------------IF Branch------------------------------------
    5                                    ***0***     Count coming in to IF
    5               1                    ***0***       `uvm_object_utils(mycoverage)
    5               2                    ***0***       `uvm_object_utils(mycoverage)
Branch totals: 0 hits of 2 branches = 0.00%

------------------------------------IF Branch------------------------------------
    5                                    ***0***     Count coming in to IF
    5               3                    ***0***       `uvm_object_utils(mycoverage)
                                         ***0***     All False Count
Branch totals: 0 hits of 2 branches = 0.00%

------------------------------------IF Branch------------------------------------
    5                                    ***0***     Count coming in to IF
    5               4                    ***0***       `uvm_object_utils(mycoverage)
    5               5                    ***0***       `uvm_object_utils(mycoverage)
Branch totals: 0 hits of 2 branches = 0.00%

------------------------------------IF Branch------------------------------------
    5                                    ***0***     Count coming in to IF
    5               6                    ***0***       `uvm_object_utils(mycoverage)
                                         ***0***     All False Count
Branch totals: 0 hits of 2 branches = 0.00%

------------------------------------IF Branch------------------------------------
    5                                    ***0***     Count coming in to IF
    5               7                    ***0***       `uvm_object_utils(mycoverage)
                                         ***0***     All False Count
Branch totals: 0 hits of 2 branches = 0.00%


  File scoreboard.sv
------------------------------------IF Branch------------------------------------
    30                                        22     Count coming in to IF
    30              1                    ***0***         if (tr == null) return;
                                              22     All False Count
Branch totals: 1 hit of 2 branches = 50.00%

------------------------------------IF Branch------------------------------------
    33                                        22     Count coming in to IF
    33              1                         22         if (tr.operation == tr.WRITE || tr.operation == tr.READ) begin
    35              1                    ***0***         end else begin
Branch totals: 1 hit of 2 branches = 50.00%

------------------------------------IF Branch------------------------------------
    40                                        22     Count coming in to IF
    40              1                    ***0***         if ((ahb_data.size() > 0) && (apb_data.size() > 0)) begin
    59              1                         22         end else begin
Branch totals: 1 hit of 2 branches = 50.00%

------------------------------------IF Branch------------------------------------
    48                                   ***0***     Count coming in to IF
    48              1                    ***0***           if (ahb_tr.operation == ahb_tr.WRITE) begin
    53              1                    ***0***           end else begin
Branch totals: 0 hits of 2 branches = 0.00%

------------------------------------IF Branch------------------------------------
    49                                   ***0***     Count coming in to IF
    49              1                    ***0***             if (ahb_tr.DATA === apb_tr.DATA)
    51              1                    ***0***             else
Branch totals: 0 hits of 2 branches = 0.00%

------------------------------------IF Branch------------------------------------
    50                                   ***0***     Count coming in to IF
    50              1                    ***0***               `uvm_info("SCOREBOARD", $sformatf("WRITE MATCH: Addr=0x%0h Data=0x%0h", ahb_tr.ADDR, ahb_tr.DATA), UVM_LOW)
                                         ***0***     All False Count
Branch totals: 0 hits of 2 branches = 0.00%

------------------------------------IF Branch------------------------------------
    52                                   ***0***     Count coming in to IF
    52              1                    ***0***               `uvm_error("SCOREBOARD", $sformatf("WRITE MISMATCH! Expected=0x%0h Got=0x%0h", ahb_tr.DATA, apb_tr.DATA))
                                         ***0***     All False Count
Branch totals: 0 hits of 2 branches = 0.00%

------------------------------------IF Branch------------------------------------
    54                                   ***0***     Count coming in to IF
    54              1                    ***0***             if (apb_tr.DATA === ahb_tr.DATA)
    56              1                    ***0***             else
Branch totals: 0 hits of 2 branches = 0.00%

------------------------------------IF Branch------------------------------------
    55                                   ***0***     Count coming in to IF
    55              1                    ***0***               `uvm_info("SCOREBOARD", $sformatf("READ MATCH: Addr=0x%0h Data=0x%0h", ahb_tr.ADDR, apb_tr.DATA), UVM_LOW)
                                         ***0***     All False Count
Branch totals: 0 hits of 2 branches = 0.00%

------------------------------------IF Branch------------------------------------
    57                                   ***0***     Count coming in to IF
    57              1                    ***0***               `uvm_error("SCOREBOARD", $sformatf("READ MISMATCH! Expected=0x%0h Got=0x%0h", apb_tr.DATA, ahb_tr.DATA))
                                         ***0***     All False Count
Branch totals: 0 hits of 2 branches = 0.00%

------------------------------------IF Branch------------------------------------
    61                                        22     Count coming in to IF
    61              1                    ***0***           if (ahb_data.size() == 0) 
                                              22     All False Count
Branch totals: 1 hit of 2 branches = 50.00%

------------------------------------IF Branch------------------------------------
    62                                   ***0***     Count coming in to IF
    62              1                    ***0***             `uvm_warning("SCOREBOARD", "AHB Queue is empty, no AHB transaction to compare.")
                                         ***0***     All False Count
Branch totals: 0 hits of 2 branches = 0.00%

------------------------------------IF Branch------------------------------------
    63                                        22     Count coming in to IF
    63              1                         22           if (apb_data.size() == 0) 
                                         ***0***     All False Count
Branch totals: 1 hit of 2 branches = 50.00%

------------------------------------IF Branch------------------------------------
    64                                        22     Count coming in to IF
    64              1                         22             `uvm_warning("SCOREBOARD", "APB Queue is empty, no APB transaction to compare.")
                                         ***0***     All False Count
Branch totals: 1 hit of 2 branches = 50.00%


  File ahb_sequence.sv
------------------------------------IF Branch------------------------------------
    5                                    ***0***     Count coming in to IF
    5               1                    ***0***       `uvm_object_utils(ahb_sequence)
    5               2                    ***0***       `uvm_object_utils(ahb_sequence)
Branch totals: 0 hits of 2 branches = 0.00%

------------------------------------IF Branch------------------------------------
